
T3450 000:487 SEGGER J-Link V4.86b Log File (0001ms, 0273ms total)
T3450 000:487 DLL Compiled: Jun 27 2014 20:11:00 (0001ms, 0273ms total)
T3450 000:487 Logging started @ 2015-04-10 22:03 (0001ms, 0273ms total)
T3450 000:488 JLINK_SetWarnOutHandler(...) (0000ms, 0273ms total)
T3450 000:488 JLINK_OpenEx(...)
Firmware: J-Link ARM V8 compiled Nov 25 2013 19:20:08
Hardware: V8.00
S/N: 20140921
Feature(s): RDI,FlashDL,FlashBP,JFlash,GDBFULL  returns O.K. (0269ms, 0542ms total)
T3450 000:757 JLINK_SetErrorOutHandler(...) (0000ms, 0542ms total)
T3450 000:757 JLINK_ExecCommand("ProjectFile = "C:\Users\zhumj1991\Desktop\Cube_Sw\Project\MDK-ARM(uV4)\JLinkSettings.ini"", ...)  returns 0x00 (0002ms, 0544ms total)
T3450 000:759 JLINK_ExecCommand("Device = STM32F407ZE", ...)Device "STM32F407ZE" selected (512 KB flash, 128 KB RAM).  returns 0x00 (0001ms, 0545ms total)
T3450 000:760 JLINK_ExecCommand("DisableConnectionTimeout", ...)  returns 0x01 (0000ms, 0545ms total)
T3450 000:760 JLINK_GetHardwareVersion()  returns 0x13880 (0000ms, 0545ms total)
T3450 000:760 JLINK_GetDLLVersion()  returns 48602 (0000ms, 0545ms total)
T3450 000:760 JLINK_GetFirmwareString(...) (0000ms, 0545ms total)
T3450 000:760 JLINK_GetDLLVersion()  returns 48602 (0000ms, 0545ms total)
T3450 000:760 JLINK_GetCompileDateTime() (0000ms, 0545ms total)
T3450 000:760 JLINK_GetFirmwareString(...) (0000ms, 0545ms total)
T3450 000:760 JLINK_GetHardwareVersion()  returns 0x13880 (0001ms, 0546ms total)
T3450 000:761 JLINK_TIF_Select(JLINKARM_TIF_SWD)  returns 0x00 (0003ms, 0549ms total)
T3450 000:764 JLINK_SetSpeed(200) (0000ms, 0549ms total)
T3450 000:764 JLINK_GetId() >0x108 TIF>Found SWD-DP with ID 0x2BA01477 >0x0D TIF> >0x28 TIF> >0x0D TIF> >0x28 TIF> >0x0D TIF> >0x21 TIF> >0x0D TIF> >0x28 TIF> >0x0D TIF> >0x28 TIF> >0x0D TIF> >0x28 TIF> >0x0D TIF> >0x21 TIF> >0x0D TIF> >0x21 TIF> >0x0D TIF> >0x28 TIF> >0x0D TIF> >0x21 TIF> >0x0D TIF> >0x21 TIF> >0x0D TIF> >0x28 TIF> >0x0D TIF> >0x21 TIF> >0x0D TIF> >0x21 TIF> >0x108 TIF>Found SWD-DP with ID 0x2BA01477 >0x0D TIF> >0x21 TIF> >0x0D TIF> >0x28 TIF> >0x0D TIF> >0x28 TIF> >0x0D TIF> >0x21 TIF>
 >0x0D TIF> >0x28 TIF> >0x0D TIF> >0x21 TIF> >0x0D TIF> >0x21 TIF> >0x0D TIF> >0x21 TIF> >0x0D TIF> >0x21 TIF> >0x0D TIF> >0x28 TIF> >0x0D TIF> >0x28 TIF> >0x0D TIF> >0x21 TIF> >0x0D TIF> >0x28 TIF> >0x0D TIF> >0x28 TIF> >0x0D TIF> >0x28 TIF> >0x0D TIF> >0x21 TIF> >0x0D TIF> >0x21 TIF> >0x0D TIF> >0x28 TIF> >0x0D TIF> >0x21 TIF> >0x0D TIF> >0x21 TIF>Found Cortex-M4 r0p1, Little endian. -- CPU_WriteMem(4 bytes @ 0xE0002000) -- CPU_ReadMem(4 bytes @ 0xE000EDF0) -- CPU_ReadMem(4 bytes @ 0xE0002000)
FPUnit: 6 code (BP) slots and 2 literal slots -- CPU_ReadMem(4 bytes @ 0xE000EDFC) -- CPU_ReadMem(4 bytes @ 0xE0001000) -- CPU_WriteMem(4 bytes @ 0xE0001000) -- CPU_ReadMem(4 bytes @ 0xE00FF010)TPIU fitted. -- CPU_ReadMem(4 bytes @ 0xE00FF014)ETM fitted. -- CPU_ReadMem(4 bytes @ 0xE00FF018) >0x0D TIF> >0x21 TIF>  returns 0x2BA01477 (0152ms, 0701ms total)
T3450 000:916 JLINK_GetDeviceFamily()  returns 14 (0000ms, 0701ms total)
T3450 000:916 JLINK_ReadMem (0xE00FFFF0, 0x0010 Bytes, ...) -- CPU is running -- CPU_ReadMem(16 bytes @ 0xE00FFFF0) - Data: 0D 00 00 00 10 00 00 00 05 00 00 00 B1 00 00 00  returns 0x00 (0005ms, 0706ms total)
T3450 000:921 JLINK_ReadMem (0xE00FFFD0, 0x0020 Bytes, ...) -- CPU is running -- CPU_ReadMem(32 bytes @ 0xE00FFFD0) - Data: 00 00 00 00 00 00 00 00 00 00 00 00 00 00 00 00 ...  returns 0x00 (0005ms, 0711ms total)
T3450 000:926 JLINK_ReadMem (0xE00FF000, 0x0018 Bytes, ...) -- CPU is running -- CPU_ReadMem(24 bytes @ 0xE00FF000) - Data: 03 F0 F0 FF 03 20 F0 FF 03 30 F0 FF 03 10 F0 FF ...  returns 0x00 (0005ms, 0716ms total)
T3450 000:931 JLINK_ReadMemU32(0xE000ED00, 0x0001 Items, ...) -- CPU is running -- CPU_ReadMem(4 bytes @ 0xE000ED00) - Data: 41 C2 0F 41  returns 0x01 (0004ms, 0720ms total)
T3450 000:935 JLINK_ReadMemU32(0xE000EF40, 0x0001 Items, ...) -- CPU is running -- CPU_ReadMem(4 bytes @ 0xE000EF40) - Data: 21 00 11 10  returns 0x01 (0004ms, 0724ms total)
T3450 000:939 JLINK_ReadMemU32(0xE000EF44, 0x0001 Items, ...) -- CPU is running -- CPU_ReadMem(4 bytes @ 0xE000EF44) - Data: 11 00 00 11  returns 0x01 (0004ms, 0728ms total)
T3450 000:943 JLINK_SetResetType(JLINKARM_RESET_TYPE_NORMAL)  returns JLINKARM_RESET_TYPE_NORMAL (0000ms, 0728ms total)
T3450 000:943 JLINK_Reset() -- CPU is running -- CPU_WriteMem(4 bytes @ 0xE000EDF0) -- CPU is running -- CPU_WriteMem(4 bytes @ 0xE000EDFC) >0x35 TIF> -- CPU is running -- CPU_WriteMem(4 bytes @ 0xE000ED0C) -- CPU is running -- CPU_ReadMem(4 bytes @ 0xE000EDF0) -- CPU is running -- CPU_ReadMem(4 bytes @ 0xE000EDF0) -- CPU is running -- CPU_WriteMem(4 bytes @ 0xE000EDF0) -- CPU is running -- CPU_WriteMem(4 bytes @ 0xE000EDFC) -- CPU is running -- CPU_ReadMem(4 bytes @ 0xE000EDF0)
 -- CPU_WriteMem(4 bytes @ 0xE0002000) -- CPU_ReadMem(4 bytes @ 0xE000EDFC) -- CPU_ReadMem(4 bytes @ 0xE0001000) (0090ms, 0818ms total)
T3450 001:033 JLINK_ReadReg(R15 (PC))  returns 0x08020000 (0001ms, 0819ms total)
T3450 001:034 JLINK_ReadReg(XPSR)  returns 0x01000000 (0000ms, 0819ms total)
T3450 001:034 JLINK_Halt()  returns 0x00 (0000ms, 0819ms total)
T3450 001:034 JLINK_IsHalted()  returns TRUE (0000ms, 0819ms total)
T3450 001:034 JLINK_ReadMemU32(0xE000EDF0, 0x0001 Items, ...) -- CPU_ReadMem(4 bytes @ 0xE000EDF0) - Data: 03 00 03 00  returns 0x01 (0004ms, 0823ms total)
T3450 001:038 JLINK_WriteU32(0xE000EDF0, 0xA05F0003) -- CPU_WriteMem(4 bytes @ 0xE000EDF0)  returns 0x00 (0002ms, 0825ms total)
T3450 001:040 JLINK_WriteU32(0xE000EDFC, 0x01000000) -- CPU_WriteMem(4 bytes @ 0xE000EDFC)  returns 0x00 (0003ms, 0828ms total)
T3450 001:043 JLINK_GetHWStatus(...)  returns 0x00 (0001ms, 0829ms total)
T3450 001:044 JLINK_GetNumBPUnits(Type = 0xFFFFFF00)  returns 0x06 (0000ms, 0829ms total)
T3450 001:044 JLINK_GetNumBPUnits(Type = 0xF0)  returns 0x2000 (0000ms, 0829ms total)
T3450 001:044 JLINK_GetNumWPUnits()  returns 0x04 (0000ms, 0829ms total)
T3450 001:045 JLINK_GetSpeed()  returns 0xC8 (0000ms, 0829ms total)
T3450 001:045 JLINK_ReadMemU32(0xE000E004, 0x0001 Items, ...) -- CPU_ReadMem(4 bytes @ 0xE000E004) - Data: 02 00 00 00  returns 0x01 (0004ms, 0833ms total)
T3450 001:049 JLINK_ReadMemU32(0xE000E004, 0x0001 Items, ...) -- CPU_ReadMem(4 bytes @ 0xE000E004) - Data: 02 00 00 00  returns 0x01 (0004ms, 0837ms total)
T3450 001:053 JLINK_WriteMem(0xE0001000, 0x001C Bytes, ...) - Data: 01 00 00 00 00 00 00 00 00 00 00 00 00 00 00 00 ... -- CPU_WriteMem(28 bytes @ 0xE0001000)  returns 0x1C (0003ms, 0840ms total)
T3450 001:056 JLINK_ReadMem (0xE0001000, 0x001C Bytes, ...) -- CPU_ReadMem(28 bytes @ 0xE0001000) - Data: 01 00 00 40 00 00 00 00 00 00 00 00 00 00 00 00 ...  returns 0x00 (0006ms, 0846ms total)
T3450 001:062 JLINK_ReadReg(R15 (PC))  returns 0x08020000 (0000ms, 0846ms total)
T3450 001:062 JLINK_ReadReg(XPSR)  returns 0x01000000 (0000ms, 0846ms total)
T3450 001:221 JLINK_ReadMem (0x08000000, 0x0224 Bytes, ...) -- CPU_ReadMem(576 bytes @ 0x08000000) -- Updating C cache (576 bytes @ 0x08000000) -- Read from C cache (548 bytes @ 0x08000000) - Data: 38 23 01 20 01 00 02 08 7D 38 02 08 31 2D 02 08 ...  returns 0x00 (0039ms, 0885ms total)
T3450 001:260 JLINK_ReadMem (0x08020000, 0x1000 Bytes, ...) -- CPU_ReadMem(4096 bytes @ 0x08020000) -- Updating C cache (4096 bytes @ 0x08020000) -- Read from C cache (4096 bytes @ 0x08020000) - Data: 06 48 80 47 06 48 00 47 FE E7 FE E7 FE E7 FE E7 ...  returns 0x00 (0258ms, 1143ms total)
T3450 001:519 JLINK_ReadMem (0x08021000, 0x1000 Bytes, ...) -- CPU_ReadMem(4096 bytes @ 0x08021000) -- Updating C cache (4096 bytes @ 0x08021000) -- Read from C cache (4096 bytes @ 0x08021000) - Data: 53 EC 11 2B 51 EC 10 0B FF F7 32 FA 41 EC 10 0B ...  returns 0x00 (0258ms, 1401ms total)
T3450 001:778 JLINK_ReadMem (0x08022000, 0x1000 Bytes, ...) -- CPU_ReadMem(4096 bytes @ 0x08022000) -- Updating C cache (4096 bytes @ 0x08022000) -- Read from C cache (4096 bytes @ 0x08022000) - Data: 21 E7 00 00 90 DF 00 20 89 02 00 20 B8 02 00 20 ...  returns 0x00 (0258ms, 1659ms total)
T3450 002:038 JLINK_ReadMem (0x08023000, 0x1000 Bytes, ...) -- CPU_ReadMem(4096 bytes @ 0x08023000) -- Updating C cache (4096 bytes @ 0x08023000) -- Read from C cache (4096 bytes @ 0x08023000) - Data: 01 21 08 46 04 F0 DE F8 01 21 02 20 04 F0 DA F8 ...  returns 0x00 (0259ms, 1918ms total)
T3450 002:298 JLINK_ReadMem (0x08024000, 0x1000 Bytes, ...) -- CPU_ReadMem(4096 bytes @ 0x08024000) -- Updating C cache (4096 bytes @ 0x08024000) -- Read from C cache (4096 bytes @ 0x08024000) - Data: 08 46 00 78 00 28 0A DD 00 BF 00 BF 28 46 FC F7 ...  returns 0x00 (0258ms, 2176ms total)
T3450 002:557 JLINK_ReadMem (0x08025000, 0x1000 Bytes, ...) -- CPU_ReadMem(4096 bytes @ 0x08025000) -- Updating C cache (4096 bytes @ 0x08025000) -- Read from C cache (4096 bytes @ 0x08025000) - Data: 30 46 FB F7 17 F8 00 BF 00 BF 00 20 20 80 28 46 ...  returns 0x00 (0258ms, 2434ms total)
T3450 002:817 JLINK_ReadMem (0x08026000, 0x1000 Bytes, ...) -- CPU_ReadMem(4096 bytes @ 0x08026000) -- Updating C cache (4096 bytes @ 0x08026000) -- Read from C cache (4096 bytes @ 0x08026000) - Data: 2B 60 20 80 0A B0 10 BD 1C 48 00 68 1C 49 09 68 ...  returns 0x00 (0262ms, 2696ms total)
T3450 003:080 JLINK_ReadMem (0x08027000, 0x1000 Bytes, ...) -- CPU_ReadMem(4096 bytes @ 0x08027000) -- Updating C cache (4096 bytes @ 0x08027000) -- Read from C cache (4096 bytes @ 0x08027000) - Data: 10 B5 00 20 00 F0 52 F8 04 46 20 46 00 F0 02 F8 ...  returns 0x00 (0259ms, 2955ms total)
T3450 003:340 JLINK_ReadMem (0x08028000, 0x1000 Bytes, ...) -- CPU_ReadMem(4096 bytes @ 0x08028000) -- Updating C cache (4096 bytes @ 0x08028000) -- Read from C cache (4096 bytes @ 0x08028000) - Data: 15 E0 04 F5 00 41 01 22 88 48 FB F7 B9 FC 87 48 ...  returns 0x00 (0258ms, 3213ms total)
T3450 003:598 JLINK_ReadMem (0x08029000, 0x1000 Bytes, ...) -- CPU_ReadMem(4096 bytes @ 0x08029000) -- Updating C cache (4096 bytes @ 0x08029000) -- Read from C cache (4096 bytes @ 0x08029000) - Data: 03 85 05 4B 98 42 02 D0 04 4B 98 42 01 D1 8B 7A ...  returns 0x00 (0258ms, 3471ms total)
T3450 003:857 JLINK_ReadMem (0x0802A000, 0x1000 Bytes, ...) -- CPU_ReadMem(4096 bytes @ 0x0802A000) -- Updating C cache (4096 bytes @ 0x0802A000) -- Read from C cache (4096 bytes @ 0x0802A000) - Data: 3F F4 1F AF B0 EE 4A 0A F0 EE 6A 0A 19 E7 01 20 ...  returns 0x00 (0258ms, 3729ms total)
T3450 004:116 JLINK_ReadMem (0x0802B000, 0x1000 Bytes, ...) -- CPU_ReadMem(4096 bytes @ 0x0802B000) -- Updating C cache (4096 bytes @ 0x0802B000) -- Read from C cache (4096 bytes @ 0x0802B000) - Data: 2C 0B 41 EC 1A 0B 53 EC 10 2B 51 EC 18 0B F5 F7 ...  returns 0x00 (0259ms, 3988ms total)
T3450 004:377 JLINK_ReadMem (0x0802C000, 0x1000 Bytes, ...) -- CPU_ReadMem(4096 bytes @ 0x0802C000) -- Updating C cache (4096 bytes @ 0x0802C000) -- Read from C cache (4096 bytes @ 0x0802C000) - Data: F7 F7 77 F8 01 21 08 46 FB F7 DC F8 01 20 8D F8 ...  returns 0x00 (0257ms, 4245ms total)
T3450 004:635 JLINK_ReadMem (0x0802D000, 0x1000 Bytes, ...) -- CPU_ReadMem(4096 bytes @ 0x0802D000) -- Updating C cache (4096 bytes @ 0x0802D000) -- Read from C cache (4096 bytes @ 0x0802D000) - Data: 31 0B 8D ED AE 0B 53 EC 1D 2B 9F ED 30 0B 51 EC ...  returns 0x00 (0259ms, 4504ms total)
T3450 004:895 JLINK_ReadMem (0x0802E000, 0x1000 Bytes, ...) -- CPU_ReadMem(4096 bytes @ 0x0802E000) -- Updating C cache (4096 bytes @ 0x0802E000) -- Read from C cache (4096 bytes @ 0x0802E000) - Data: 34 FA 41 EC 10 0B 8D ED 04 0B 53 EC 1D 2B 9D ED ...  returns 0x00 (0258ms, 4762ms total)
T3450 005:154 JLINK_ReadMem (0x0802F000, 0x1000 Bytes, ...) -- CPU_ReadMem(4096 bytes @ 0x0802F000) -- Updating C cache (4096 bytes @ 0x0802F000) -- Read from C cache (4096 bytes @ 0x0802F000) - Data: 10 0B 8D ED 0C 0B BB 98 90 ED 1C 0B 8D ED 0A 0B ...  returns 0x00 (0259ms, 5021ms total)
T3450 005:413 JLINK_ReadMem (0x08030000, 0x1000 Bytes, ...) -- CPU_ReadMem(4096 bytes @ 0x08030000) -- Updating C cache (4096 bytes @ 0x08030000) -- Read from C cache (4096 bytes @ 0x08030000) - Data: 8D ED 06 0B 1F ED 81 0B 53 EC 10 2B 9D ED 06 0B ...  returns 0x00 (0258ms, 5279ms total)
T3450 005:672 JLINK_ReadMem (0x08031000, 0x1000 Bytes, ...) -- CPU_ReadMem(4096 bytes @ 0x08031000) -- Updating C cache (4096 bytes @ 0x08031000) -- Read from C cache (4096 bytes @ 0x08031000) - Data: 41 EC 10 0B 8D ED 16 0B 9D ED 6E 0B 53 EC 10 2B ...  returns 0x00 (0258ms, 5537ms total)
T3450 005:931 JLINK_ReadMem (0x08032000, 0x0C10 Bytes, ...) -- CPU_ReadMem(3136 bytes @ 0x08032000) -- Updating C cache (3136 bytes @ 0x08032000) -- Read from C cache (3088 bytes @ 0x08032000) - Data: 41 EC 10 0B 8D ED 1C 0B 9D ED 1E 0B 53 EC 10 2B ...  returns 0x00 (0199ms, 5736ms total)
T3450 006:182 JLINK_SetResetType(JLINKARM_RESET_TYPE_NORMAL)  returns JLINKARM_RESET_TYPE_NORMAL (0000ms, 5736ms total)
T3450 006:182 JLINK_Reset() -- CPU_WriteMem(4 bytes @ 0xE000EDF0) -- CPU_WriteMem(4 bytes @ 0xE000EDFC) >0x35 TIF> -- CPU_WriteMem(4 bytes @ 0xE000ED0C) -- CPU_ReadMem(4 bytes @ 0xE000EDF0) -- CPU_ReadMem(4 bytes @ 0xE000EDF0) -- CPU_WriteMem(4 bytes @ 0xE000EDF0) -- CPU_WriteMem(4 bytes @ 0xE000EDFC) -- CPU is running -- CPU_ReadMem(4 bytes @ 0xE000EDF0) -- CPU_WriteMem(4 bytes @ 0xE0002000) -- CPU_ReadMem(4 bytes @ 0xE000EDFC) -- CPU_ReadMem(4 bytes @ 0xE0001000) (0091ms, 5827ms total)
T3450 006:274 JLINK_ReadReg(R15 (PC))  returns 0x08020000 (0000ms, 5827ms total)
T3450 006:274 JLINK_ReadReg(XPSR)  returns 0x01000000 (0000ms, 5827ms total)
T3450 006:275 JLINK_ReadMem (0x0801FF00, 0x003C Bytes, ...) -- CPU_ReadMem(64 bytes @ 0x0801FF00) -- Updating C cache (64 bytes @ 0x0801FF00) -- Read from C cache (60 bytes @ 0x0801FF00) - Data: FF FF FF FF FF FF FF FF FF FF FF FF FF FF FF FF ...  returns 0x00 (0007ms, 5834ms total)
T3450 006:282 JLINK_ReadMem (0x0801FF3C, 0x003C Bytes, ...) -- CPU_ReadMem(64 bytes @ 0x0801FF40) -- Updating C cache (64 bytes @ 0x0801FF40) -- Read from C cache (60 bytes @ 0x0801FF3C) - Data: FF FF FF FF FF FF FF FF FF FF FF FF FF FF FF FF ...  returns 0x00 (0007ms, 5841ms total)
T3450 006:289 JLINK_ReadMem (0x0801FF78, 0x003C Bytes, ...) -- CPU_ReadMem(64 bytes @ 0x0801FF80) -- Updating C cache (64 bytes @ 0x0801FF80) -- Read from C cache (60 bytes @ 0x0801FF78) - Data: FF FF FF FF FF FF FF FF FF FF FF FF FF FF FF FF ...  returns 0x00 (0008ms, 5849ms total)
T3450 006:297 JLINK_ReadMem (0x0801FFB4, 0x003C Bytes, ...) -- CPU_ReadMem(64 bytes @ 0x0801FFC0) -- Updating C cache (64 bytes @ 0x0801FFC0) -- Read from C cache (60 bytes @ 0x0801FFB4) - Data: FF FF FF FF FF FF FF FF FF FF FF FF FF FF FF FF ...  returns 0x00 (0008ms, 5857ms total)
T3450 006:305 JLINK_ReadMem (0x0801FFF0, 0x0010 Bytes, ...) -- Read from C cache (16 bytes @ 0x0801FFF0) - Data: FF FF FF FF FF FF FF FF FF FF FF FF FF FF FF FF  returns 0x00 (0000ms, 5857ms total)
T3450 006:305 JLINK_ReadMem (0x08020000, 0x002C Bytes, ...) -- CPU_ReadMem(64 bytes @ 0x08020000) -- Updating C cache (64 bytes @ 0x08020000) -- Read from C cache (44 bytes @ 0x08020000) - Data: 06 48 80 47 06 48 00 47 FE E7 FE E7 FE E7 FE E7 ...  returns 0x00 (0007ms, 5864ms total)
T3450 006:475 JLINK_ReadMem (0x40020C00, 0x0024 Bytes, ...) -- CPU_ReadMem(36 bytes @ 0x40020C00) - Data: 00 00 00 00 00 00 00 00 00 00 00 00 00 00 00 00 ...  returns 0x00 (0006ms, 5870ms total)
T3450 006:482 JLINK_ReadMem (0x40020C24, 0x0004 Bytes, ...) -- CPU_ReadMem(4 bytes @ 0x40020C24) - Data: 00 00 00 00  returns 0x00 (0021ms, 5891ms total)
T3450 009:243 JLINK_ReadMem (0x2000011C, 0x0004 Bytes, ...) -- CPU_ReadMem(64 bytes @ 0x20000100) -- Updating C cache (64 bytes @ 0x20000100) -- Read from C cache (4 bytes @ 0x2000011C) - Data: 2B 61 16 4B  returns 0x00 (0009ms, 5900ms total)
T3450 009:255 JLINK_ReadMem (0x20000120, 0x0004 Bytes, ...) -- Read from C cache (4 bytes @ 0x20000120) - Data: 17 E0 2C 69  returns 0x00 (0000ms, 5900ms total)
T3450 009:256 JLINK_ReadMem (0x20000124, 0x0004 Bytes, ...) -- Read from C cache (4 bytes @ 0x20000124) - Data: 1C 43 2C 61  returns 0x00 (0000ms, 5900ms total)
T3450 009:265 JLINK_ReadMem (0x20000158, 0x0004 Bytes, ...) -- CPU_ReadMem(64 bytes @ 0x20000140) -- Updating C cache (64 bytes @ 0x20000140) -- Read from C cache (4 bytes @ 0x20000158) - Data: 70 BD 00 00  returns 0x00 (0008ms, 5908ms total)
T3450 009:274 JLINK_ReadMem (0x20000140, 0x0004 Bytes, ...) -- Read from C cache (4 bytes @ 0x20000140) - Data: 04 D0 E8 68  returns 0x00 (0001ms, 5909ms total)
T3450 009:277 JLINK_ReadMem (0x20000162, 0x0001 Bytes, ...) -- Read from C cache (1 bytes @ 0x20000162) - Data: 02  returns 0x00 (0001ms, 5910ms total)
T3450 009:281 JLINK_ReadMem (0x20000150, 0x0002 Bytes, ...) -- Read from C cache (2 bytes @ 0x20000150) - Data: 09 1F  returns 0x00 (0000ms, 5910ms total)
T3450 009:282 JLINK_ReadMem (0x2000014A, 0x0002 Bytes, ...) -- Read from C cache (2 bytes @ 0x2000014A) - Data: 70 BD  returns 0x00 (0001ms, 5911ms total)
T3450 009:284 JLINK_ReadMem (0x2000014C, 0x0002 Bytes, ...) -- Read from C cache (2 bytes @ 0x2000014C) - Data: 00 1D  returns 0x00 (0000ms, 5911ms total)
T3450 009:286 JLINK_ReadMem (0x2000014E, 0x0002 Bytes, ...) -- Read from C cache (2 bytes @ 0x2000014E) - Data: 12 1D  returns 0x00 (0000ms, 5911ms total)
T3450 009:290 JLINK_ReadMem (0x20000152, 0x0002 Bytes, ...) -- Read from C cache (2 bytes @ 0x20000152) - Data: 00 29  returns 0x00 (0000ms, 5911ms total)
T3450 009:292 JLINK_ReadMem (0x20000154, 0x0002 Bytes, ...) -- Read from C cache (2 bytes @ 0x20000154) - Data: E5 D1  returns 0x00 (0000ms, 5911ms total)
T3450 009:293 JLINK_ReadMem (0x200000F9, 0x0001 Bytes, ...) -- CPU_ReadMem(64 bytes @ 0x200000C0) -- Updating C cache (64 bytes @ 0x200000C0) -- Read from C cache (1 bytes @ 0x200000F9) - Data: 06  returns 0x00 (0007ms, 5918ms total)
T3450 009:304 JLINK_ReadMem (0x2000D3D0, 0x0010 Bytes, ...) -- CPU_ReadMem(64 bytes @ 0x2000D3C0) -- Updating C cache (64 bytes @ 0x2000D3C0) -- Read from C cache (16 bytes @ 0x2000D3D0) - Data: 00 00 00 00 00 00 00 4C 4C 00 00 00 00 00 00 00  returns 0x00 (0008ms, 5926ms total)
T3450 009:313 JLINK_ReadMem (0x20000100, 0x0001 Bytes, ...) -- Read from C cache (1 bytes @ 0x20000100) - Data: 18  returns 0x00 (0000ms, 5926ms total)
T3450 009:315 JLINK_ReadMem (0x20000101, 0x0001 Bytes, ...) -- Read from C cache (1 bytes @ 0x20000101) - Data: 43  returns 0x00 (0000ms, 5926ms total)
T3450 009:316 JLINK_ReadMem (0x20000102, 0x0001 Bytes, ...) -- Read from C cache (1 bytes @ 0x20000102) - Data: C8  returns 0x00 (0000ms, 5926ms total)
T3450 009:318 JLINK_ReadMem (0x20000103, 0x0001 Bytes, ...) -- Read from C cache (1 bytes @ 0x20000103) - Data: 60  returns 0x00 (0000ms, 5926ms total)
T3450 009:319 JLINK_ReadMem (0x20000104, 0x0001 Bytes, ...) -- Read from C cache (1 bytes @ 0x20000104) - Data: 01  returns 0x00 (0000ms, 5926ms total)
T3450 009:322 JLINK_ReadMem (0x20000112, 0x0002 Bytes, ...) -- Read from C cache (2 bytes @ 0x20000112) - Data: 89 00  returns 0x00 (0000ms, 5926ms total)
T3450 009:327 JLINK_ReadMem (0x200001B0, 0x0004 Bytes, ...) -- CPU_ReadMem(64 bytes @ 0x20000180) -- Updating C cache (64 bytes @ 0x20000180) -- Read from C cache (4 bytes @ 0x200001B0) - Data: FF FF FF FF  returns 0x00 (0007ms, 5933ms total)
T3450 009:336 JLINK_ReadMem (0x200001B4, 0x0004 Bytes, ...) -- Read from C cache (4 bytes @ 0x200001B4) - Data: FF FF FF FF  returns 0x00 (0000ms, 5933ms total)
T3450 009:340 JLINK_ReadMem (0x20000105, 0x0001 Bytes, ...) -- Read from C cache (1 bytes @ 0x20000105) - Data: 20  returns 0x00 (0000ms, 5933ms total)
T3450 009:342 JLINK_ReadMem (0x20000106, 0x0001 Bytes, ...) -- Read from C cache (1 bytes @ 0x20000106) - Data: 30  returns 0x00 (0000ms, 5933ms total)
T3450 009:344 JLINK_ReadMem (0x20000107, 0x0001 Bytes, ...) -- Read from C cache (1 bytes @ 0x20000107) - Data: BD  returns 0x00 (0000ms, 5933ms total)
T3450 009:348 JLINK_ReadMem (0x200000FA, 0x0001 Bytes, ...) -- Read from C cache (1 bytes @ 0x200000FA) - Data: 00  returns 0x00 (0000ms, 5933ms total)
T3450 009:350 JLINK_ReadMem (0x200000FB, 0x0001 Bytes, ...) -- Read from C cache (1 bytes @ 0x200000FB) - Data: 0F  returns 0x00 (0000ms, 5933ms total)
T4D98 009:491 JLINK_SetBPEx(Addr = 0x0802E2D8, Type = 0xFFFFFFF2)  returns 0x00000001 (0000ms, 5933ms total)
T4D98 009:491 JLINK_Go() -- CPU_WriteMem(4 bytes @ 0xE0002000) -- CPU_WriteMem(4 bytes @ 0xE0002008) -- CPU_WriteMem(4 bytes @ 0xE000200C) -- CPU_WriteMem(4 bytes @ 0xE0002010) -- CPU_WriteMem(4 bytes @ 0xE0002014) -- CPU_WriteMem(4 bytes @ 0xE0002018) -- CPU_WriteMem(4 bytes @ 0xE000201C) -- CPU_WriteMem(4 bytes @ 0xE0001004) (0027ms, 5960ms total)
T4D98 009:619 JLINK_IsHalted()  returns TRUE (0048ms, 6009ms total)
T4D98 009:667 JLINK_Halt()  returns 0x00 (0000ms, 5961ms total)
T4D98 009:667 JLINK_IsHalted()  returns TRUE (0000ms, 5961ms total)
T4D98 009:667 JLINK_IsHalted()  returns TRUE (0000ms, 5961ms total)
T4D98 009:667 JLINK_IsHalted()  returns TRUE (0000ms, 5961ms total)
T4D98 009:667 JLINK_ReadReg(R15 (PC))  returns 0x0802E2D8 (0000ms, 5961ms total)
T4D98 009:667 JLINK_ReadReg(XPSR)  returns 0x61000000 (0000ms, 5961ms total)
T4D98 009:667 JLINK_ClrBPEx(BPHandle = 0x00000001)  returns 0x00 (0000ms, 5961ms total)
T4D98 009:667 JLINK_ReadMemU32(0xE000ED30, 0x0001 Items, ...) -- CPU_ReadMem(4 bytes @ 0xE000ED30) - Data: 03 00 00 00  returns 0x01 (0004ms, 5965ms total)
T4D98 009:671 JLINK_ReadMemU32(0xE0001028, 0x0001 Items, ...) -- CPU_ReadMem(4 bytes @ 0xE0001028) - Data: 00 00 00 00  returns 0x01 (0004ms, 5969ms total)
T4D98 009:675 JLINK_ReadMemU32(0xE0001038, 0x0001 Items, ...) -- CPU_ReadMem(4 bytes @ 0xE0001038) - Data: 00 02 00 00  returns 0x01 (0005ms, 5974ms total)
T4D98 009:680 JLINK_ReadMemU32(0xE0001048, 0x0001 Items, ...) -- CPU_ReadMem(4 bytes @ 0xE0001048) - Data: 00 00 00 00  returns 0x01 (0004ms, 5978ms total)
T4D98 009:684 JLINK_ReadMemU32(0xE0001058, 0x0001 Items, ...) -- CPU_ReadMem(4 bytes @ 0xE0001058) - Data: 00 00 00 00  returns 0x01 (0004ms, 5982ms total)
T4D98 009:688 JLINK_ReadReg(R0)  returns 0x0802E2D9 (0000ms, 5982ms total)
T4D98 009:688 JLINK_ReadReg(R1)  returns 0x20012338 (0000ms, 5982ms total)
T4D98 009:688 JLINK_ReadReg(R2)  returns 0x00000000 (0000ms, 5982ms total)
T4D98 009:688 JLINK_ReadReg(R3)  returns 0x080001D1 (0000ms, 5982ms total)
T4D98 009:688 JLINK_ReadReg(R4)  returns 0x08000200 (0001ms, 5983ms total)
T4D98 009:689 JLINK_ReadReg(R5)  returns 0x08000200 (0000ms, 5983ms total)
T4D98 009:689 JLINK_ReadReg(R6)  returns 0x00000000 (0000ms, 5983ms total)
T4D98 009:689 JLINK_ReadReg(R7)  returns 0x00000000 (0000ms, 5983ms total)
T4D98 009:689 JLINK_ReadReg(R8)  returns 0x00000000 (0000ms, 5983ms total)
T4D98 009:689 JLINK_ReadReg(R9)  returns 0x00000000 (0000ms, 5983ms total)
T4D98 009:689 JLINK_ReadReg(R10)  returns 0x00000000 (0000ms, 5983ms total)
T4D98 009:689 JLINK_ReadReg(R11)  returns 0x00000000 (0000ms, 5983ms total)
T4D98 009:689 JLINK_ReadReg(R12)  returns 0x00000000 (0000ms, 5983ms total)
T4D98 009:689 JLINK_ReadReg(R13 (SP))  returns 0x20012338 (0000ms, 5983ms total)
T4D98 009:689 JLINK_ReadReg(R14)  returns 0x080001B9 (0000ms, 5983ms total)
T4D98 009:689 JLINK_ReadReg(R15 (PC))  returns 0x0802E2D8 (0000ms, 5983ms total)
T4D98 009:689 JLINK_ReadReg(XPSR)  returns 0x61000000 (0000ms, 5983ms total)
T4D98 009:689 JLINK_ReadReg(MSP)  returns 0x20012338 (0000ms, 5983ms total)
T4D98 009:689 JLINK_ReadReg(PSP)  returns 0x00000000 (0000ms, 5983ms total)
T4D98 009:689 JLINK_ReadReg(CFBP)  returns 0x00000000 (0000ms, 5983ms total)
T4D98 009:689 JLINK_ReadReg(FPSCR)  returns 0x00000000 (0078ms, 6061ms total)
T4D98 009:767 JLINK_ReadReg(FPS0)  returns 0x00000000 (0000ms, 6061ms total)
T4D98 009:767 JLINK_ReadReg(FPS1)  returns 0x00000000 (0000ms, 6061ms total)
T4D98 009:767 JLINK_ReadReg(FPS2)  returns 0x00000000 (0000ms, 6061ms total)
T4D98 009:768 JLINK_ReadReg(FPS3)  returns 0x00000000 (0000ms, 6061ms total)
T4D98 009:768 JLINK_ReadReg(FPS4)  returns 0x00000000 (0000ms, 6061ms total)
T4D98 009:768 JLINK_ReadReg(FPS5)  returns 0x00000000 (0000ms, 6061ms total)
T4D98 009:768 JLINK_ReadReg(FPS6)  returns 0x00000000 (0000ms, 6061ms total)
T4D98 009:768 JLINK_ReadReg(FPS7)  returns 0x00000000 (0000ms, 6061ms total)
T4D98 009:768 JLINK_ReadReg(FPS8)  returns 0x00000000 (0000ms, 6061ms total)
T4D98 009:768 JLINK_ReadReg(FPS9)  returns 0x00000000 (0000ms, 6061ms total)
T4D98 009:768 JLINK_ReadReg(FPS10)  returns 0x00000000 (0000ms, 6061ms total)
T4D98 009:768 JLINK_ReadReg(FPS11)  returns 0x00000000 (0000ms, 6061ms total)
T4D98 009:768 JLINK_ReadReg(FPS12)  returns 0x00000000 (0000ms, 6061ms total)
T4D98 009:768 JLINK_ReadReg(FPS13)  returns 0x00000000 (0000ms, 6061ms total)
T4D98 009:768 JLINK_ReadReg(FPS14)  returns 0x00000000 (0000ms, 6061ms total)
T4D98 009:768 JLINK_ReadReg(FPS15)  returns 0x00000000 (0000ms, 6061ms total)
T4D98 009:768 JLINK_ReadReg(FPS16)  returns 0x00000000 (0000ms, 6061ms total)
T4D98 009:768 JLINK_ReadReg(FPS17)  returns 0x00000000 (0000ms, 6061ms total)
T4D98 009:768 JLINK_ReadReg(FPS18)  returns 0x00000000 (0000ms, 6061ms total)
T4D98 009:768 JLINK_ReadReg(FPS19)  returns 0x00000000 (0000ms, 6061ms total)
T4D98 009:768 JLINK_ReadReg(FPS20)  returns 0x00000000 (0000ms, 6061ms total)
T4D98 009:768 JLINK_ReadReg(FPS31)  returns 0x00000000 (0000ms, 6061ms total)
T4D98 009:768 JLINK_ReadReg(FPS7)  returns 0x00000000 (0000ms, 6061ms total)
T4D98 009:768 JLINK_ReadReg(FPS8)  returns 0x00000000 (0000ms, 6061ms total)
T4D98 009:768 JLINK_ReadReg(FPS9)  returns 0x00000000 (0000ms, 6061ms total)
T4D98 009:768 JLINK_ReadReg(FPS10)  returns 0x00000000 (0000ms, 6061ms total)
T4D98 009:768 JLINK_ReadReg(FPS11)  returns 0x00000000 (0000ms, 6061ms total)
T4D98 009:768 JLINK_ReadReg(FPS12)  returns 0x00000000 (0000ms, 6061ms total)
T4D98 009:768 JLINK_ReadReg(FPS13)  returns 0x00000000 (0000ms, 6061ms total)
T4D98 009:768 JLINK_ReadReg(FPS14)  returns 0x00000000 (0000ms, 6061ms total)
T4D98 009:768 JLINK_ReadReg(FPS15)  returns 0x00000000 (0000ms, 6061ms total)
T4D98 009:768 JLINK_ReadReg(FPS16)  returns 0x00000000 (0000ms, 6061ms total)
T3450 009:768 JLINK_ReadMem (0x40020C00, 0x0024 Bytes, ...) -- CPU_ReadMem(36 bytes @ 0x40020C00) - Data: 00 00 00 00 00 00 00 00 00 00 00 00 00 00 00 00 ...  returns 0x00 (0006ms, 6067ms total)
T3450 009:774 JLINK_ReadMem (0x40020C24, 0x0004 Bytes, ...) -- CPU_ReadMem(4 bytes @ 0x40020C24) - Data: 00 00 00 00  returns 0x00 (0004ms, 6071ms total)
T3450 009:784 JLINK_ReadMem (0x0802E2CE, 0x0002 Bytes, ...) -- CPU_ReadMem(64 bytes @ 0x0802E2C0) -- Updating C cache (64 bytes @ 0x0802E2C0) -- Read from C cache (2 bytes @ 0x0802E2CE) - Data: 19 B0  returns 0x00 (0008ms, 6079ms total)
T3450 009:792 JLINK_ReadMem (0x0802E2D0, 0x003C Bytes, ...) -- CPU_ReadMem(64 bytes @ 0x0802E300) -- Updating C cache (64 bytes @ 0x0802E300) -- Read from C cache (60 bytes @ 0x0802E2D0) - Data: BD EC 10 8B BD E8 FF 8F 00 B5 8B B0 0A A8 F5 F7 ...  returns 0x00 (0008ms, 6087ms total)
T3450 014:264 JLINK_ReadMem (0x2000011C, 0x0004 Bytes, ...) -- CPU_ReadMem(64 bytes @ 0x20000100) -- Updating C cache (64 bytes @ 0x20000100) -- Read from C cache (4 bytes @ 0x2000011C) - Data: 00 00 00 00  returns 0x00 (0008ms, 6095ms total)
T3450 014:296 JLINK_ReadMem (0x20000120, 0x0004 Bytes, ...) -- Read from C cache (4 bytes @ 0x20000120) - Data: 00 00 00 00  returns 0x00 (0000ms, 6095ms total)
T3450 014:296 JLINK_ReadMem (0x20000124, 0x0004 Bytes, ...) -- Read from C cache (4 bytes @ 0x20000124) - Data: 00 00 00 00  returns 0x00 (0000ms, 6095ms total)
T3450 014:297 JLINK_ReadMem (0x20000158, 0x0004 Bytes, ...) -- CPU_ReadMem(64 bytes @ 0x20000140) -- Updating C cache (64 bytes @ 0x20000140) -- Read from C cache (4 bytes @ 0x20000158) - Data: 00 00 00 00  returns 0x00 (0007ms, 6102ms total)
T3450 014:305 JLINK_ReadMem (0x20000140, 0x0004 Bytes, ...) -- Read from C cache (4 bytes @ 0x20000140) - Data: 00 00 00 00  returns 0x00 (0000ms, 6102ms total)
T3450 014:305 JLINK_ReadMem (0x20000162, 0x0001 Bytes, ...) -- Read from C cache (1 bytes @ 0x20000162) - Data: 00  returns 0x00 (0000ms, 6102ms total)
T3450 014:305 JLINK_ReadMem (0x20000150, 0x0002 Bytes, ...) -- Read from C cache (2 bytes @ 0x20000150) - Data: 00 00  returns 0x00 (0000ms, 6102ms total)
T3450 014:306 JLINK_ReadMem (0x2000014A, 0x0002 Bytes, ...) -- Read from C cache (2 bytes @ 0x2000014A) - Data: 00 00  returns 0x00 (0000ms, 6102ms total)
T3450 014:306 JLINK_ReadMem (0x2000014C, 0x0002 Bytes, ...) -- Read from C cache (2 bytes @ 0x2000014C) - Data: 00 00  returns 0x00 (0000ms, 6102ms total)
T3450 014:306 JLINK_ReadMem (0x2000014E, 0x0002 Bytes, ...) -- Read from C cache (2 bytes @ 0x2000014E) - Data: 00 00  returns 0x00 (0000ms, 6102ms total)
T3450 014:308 JLINK_ReadMem (0x20000152, 0x0002 Bytes, ...) -- Read from C cache (2 bytes @ 0x20000152) - Data: 00 00  returns 0x00 (0000ms, 6102ms total)
T3450 014:308 JLINK_ReadMem (0x20000154, 0x0002 Bytes, ...) -- Read from C cache (2 bytes @ 0x20000154) - Data: 00 00  returns 0x00 (0000ms, 6102ms total)
T3450 014:308 JLINK_ReadMem (0x200000F9, 0x0001 Bytes, ...) -- CPU_ReadMem(64 bytes @ 0x200000C0) -- Updating C cache (64 bytes @ 0x200000C0) -- Read from C cache (1 bytes @ 0x200000F9) - Data: 30  returns 0x00 (0008ms, 6110ms total)
T3450 014:316 JLINK_ReadMem (0x2000D3D0, 0x0010 Bytes, ...) -- CPU_ReadMem(64 bytes @ 0x2000D3C0) -- Updating C cache (64 bytes @ 0x2000D3C0) -- Read from C cache (16 bytes @ 0x2000D3D0) - Data: 00 00 00 00 00 00 00 00 00 00 00 00 00 00 00 00  returns 0x00 (0008ms, 6118ms total)
T3450 014:324 JLINK_ReadMem (0x20000100, 0x0001 Bytes, ...) -- Read from C cache (1 bytes @ 0x20000100) - Data: 02  returns 0x00 (0000ms, 6118ms total)
T3450 014:325 JLINK_ReadMem (0x20000101, 0x0001 Bytes, ...) -- Read from C cache (1 bytes @ 0x20000101) - Data: 02  returns 0x00 (0000ms, 6118ms total)
T3450 014:325 JLINK_ReadMem (0x20000102, 0x0001 Bytes, ...) -- Read from C cache (1 bytes @ 0x20000102) - Data: 02  returns 0x00 (0000ms, 6118ms total)
T3450 014:325 JLINK_ReadMem (0x20000103, 0x0001 Bytes, ...) -- Read from C cache (1 bytes @ 0x20000103) - Data: 02  returns 0x00 (0000ms, 6118ms total)
T3450 014:326 JLINK_ReadMem (0x20000104, 0x0001 Bytes, ...) -- Read from C cache (1 bytes @ 0x20000104) - Data: 02  returns 0x00 (0000ms, 6118ms total)
T3450 014:326 JLINK_ReadMem (0x20000112, 0x0002 Bytes, ...) -- Read from C cache (2 bytes @ 0x20000112) - Data: 00 00  returns 0x00 (0000ms, 6118ms total)
T3450 014:326 JLINK_ReadMem (0x200001B0, 0x0004 Bytes, ...) -- CPU_ReadMem(64 bytes @ 0x20000180) -- Updating C cache (64 bytes @ 0x20000180) -- Read from C cache (4 bytes @ 0x200001B0) - Data: 00 00 00 00  returns 0x00 (0008ms, 6126ms total)
T3450 014:334 JLINK_ReadMem (0x200001B4, 0x0004 Bytes, ...) -- Read from C cache (4 bytes @ 0x200001B4) - Data: 00 00 00 00  returns 0x00 (0000ms, 6126ms total)
T3450 014:334 JLINK_ReadMem (0x20000105, 0x0001 Bytes, ...) -- Read from C cache (1 bytes @ 0x20000105) - Data: 02  returns 0x00 (0000ms, 6126ms total)
T3450 014:335 JLINK_ReadMem (0x20000106, 0x0001 Bytes, ...) -- Read from C cache (1 bytes @ 0x20000106) - Data: 02  returns 0x00 (0000ms, 6126ms total)
T3450 014:335 JLINK_ReadMem (0x20000107, 0x0001 Bytes, ...) -- Read from C cache (1 bytes @ 0x20000107) - Data: 02  returns 0x00 (0000ms, 6126ms total)
T3450 015:929 JLINK_ReadMem (0x2000DF38, 0x0004 Bytes, ...) -- CPU_ReadMem(64 bytes @ 0x2000DF00) -- Updating C cache (64 bytes @ 0x2000DF00) -- Read from C cache (4 bytes @ 0x2000DF38) - Data: 00 00 00 00  returns 0x00 (0008ms, 6134ms total)
T3450 015:937 JLINK_ReadMem (0x2000DF3C, 0x0002 Bytes, ...) -- Read from C cache (2 bytes @ 0x2000DF3C) - Data: 00 00  returns 0x00 (0000ms, 6134ms total)
T3450 015:937 JLINK_ReadMem (0x2000DF3E, 0x0001 Bytes, ...) -- Read from C cache (1 bytes @ 0x2000DF3E) - Data: 00  returns 0x00 (0000ms, 6134ms total)
T4D98 021:407 JLINK_Go() -- CPU_WriteMem(4 bytes @ 0xE0002008) (0011ms, 6145ms total)
T4D98 021:518 JLINK_IsHalted()  returns FALSE (0003ms, 6148ms total)
T4D98 021:621 JLINK_IsHalted()  returns FALSE (0003ms, 6148ms total)
T4D98 021:724 JLINK_IsHalted()  returns FALSE (0004ms, 6149ms total)
T4D98 021:828 JLINK_IsHalted()  returns FALSE (0003ms, 6148ms total)
T4D98 021:931 JLINK_ReadMemU32(0xE0001004, 0x0001 Items, ...) -- CPU is running -- CPU_ReadMem(4 bytes @ 0xE0001004) - Data: 36 20 2E 05  returns 0x01 (0003ms, 6148ms total)
T3450 021:935 JLINK_ReadMem (0x2000011C, 0x0004 Bytes, ...) -- CPU is running -- CPU_ReadMem(4 bytes @ 0x2000011C) - Data: 00 00 00 00  returns 0x00 (0003ms, 6151ms total)
T3450 021:940 JLINK_ReadMem (0x20000120, 0x0004 Bytes, ...) -- CPU is running -- CPU_ReadMem(4 bytes @ 0x20000120) - Data: 00 00 10 00  returns 0x00 (0004ms, 6155ms total)
T3450 021:946 JLINK_ReadMem (0x20000124, 0x0004 Bytes, ...) -- CPU is running -- CPU_ReadMem(4 bytes @ 0x20000124) - Data: 00 80 00 00  returns 0x00 (0004ms, 6159ms total)
T3450 021:951 JLINK_ReadMem (0x20000158, 0x0004 Bytes, ...) -- CPU is running -- CPU_ReadMem(4 bytes @ 0x20000158) - Data: 00 00 00 00  returns 0x00 (0004ms, 6163ms total)
T3450 021:955 JLINK_ReadMem (0x20000140, 0x0004 Bytes, ...) -- CPU is running -- CPU_ReadMem(4 bytes @ 0x20000140) - Data: 40 9C 00 00  returns 0x00 (0004ms, 6167ms total)
T3450 021:959 JLINK_ReadMem (0x20000162, 0x0001 Bytes, ...) -- CPU is running -- CPU_ReadMem(1 bytes @ 0x20000162) - Data: 00  returns 0x00 (0004ms, 6171ms total)
T3450 021:963 JLINK_ReadMem (0x20000150, 0x0002 Bytes, ...) -- CPU is running -- CPU_ReadMem(2 bytes @ 0x20000150) - Data: 00 00  returns 0x00 (0005ms, 6176ms total)
T3450 021:968 JLINK_ReadMem (0x2000014A, 0x0002 Bytes, ...) -- CPU is running -- CPU_ReadMem(2 bytes @ 0x2000014A) - Data: 32 00  returns 0x00 (0004ms, 6180ms total)
T3450 021:973 JLINK_ReadMem (0x2000014C, 0x0002 Bytes, ...) -- CPU is running -- CPU_ReadMem(2 bytes @ 0x2000014C) - Data: 32 00  returns 0x00 (0004ms, 6184ms total)
T3450 021:977 JLINK_ReadMem (0x2000014E, 0x0002 Bytes, ...) -- CPU is running -- CPU_ReadMem(2 bytes @ 0x2000014E) - Data: 32 00  returns 0x00 (0004ms, 6188ms total)
T3450 021:982 JLINK_ReadMem (0x20000150, 0x0002 Bytes, ...) -- CPU is running -- CPU_ReadMem(2 bytes @ 0x20000150) - Data: 00 00  returns 0x00 (0004ms, 6192ms total)
T3450 021:986 JLINK_ReadMem (0x20000152, 0x0002 Bytes, ...) -- CPU is running -- CPU_ReadMem(2 bytes @ 0x20000152) - Data: 00 00  returns 0x00 (0004ms, 6196ms total)
T3450 021:991 JLINK_ReadMem (0x20000154, 0x0002 Bytes, ...) -- CPU is running -- CPU_ReadMem(2 bytes @ 0x20000154) - Data: 00 00  returns 0x00 (0004ms, 6200ms total)
T3450 021:995 JLINK_ReadMem (0x200000F9, 0x0001 Bytes, ...) -- CPU is running -- CPU_ReadMem(1 bytes @ 0x200000F9) - Data: 30  returns 0x00 (0004ms, 6204ms total)
T3450 022:000 JLINK_ReadMem (0x2000D3D0, 0x0010 Bytes, ...) -- CPU is running -- CPU_ReadMem(16 bytes @ 0x2000D3D0) - Data: 00 00 00 00 00 00 00 00 00 00 00 00 00 00 00 00  returns 0x00 (0004ms, 6208ms total)
T3450 022:004 JLINK_ReadMem (0x20000100, 0x0001 Bytes, ...) -- CPU is running -- CPU_ReadMem(1 bytes @ 0x20000100) - Data: 02  returns 0x00 (0004ms, 6212ms total)
T3450 022:009 JLINK_ReadMem (0x20000101, 0x0001 Bytes, ...) -- CPU is running -- CPU_ReadMem(1 bytes @ 0x20000101) - Data: 02  returns 0x00 (0003ms, 6215ms total)
T3450 022:013 JLINK_ReadMem (0x20000102, 0x0001 Bytes, ...) -- CPU is running -- CPU_ReadMem(1 bytes @ 0x20000102) - Data: 02  returns 0x00 (0003ms, 6218ms total)
T3450 022:017 JLINK_ReadMem (0x20000103, 0x0001 Bytes, ...) -- CPU is running -- CPU_ReadMem(1 bytes @ 0x20000103) - Data: 02  returns 0x00 (0004ms, 6222ms total)
T3450 022:021 JLINK_ReadMem (0x20000104, 0x0001 Bytes, ...) -- CPU is running -- CPU_ReadMem(1 bytes @ 0x20000104) - Data: 02  returns 0x00 (0004ms, 6226ms total)
T3450 022:025 JLINK_ReadMem (0x20000112, 0x0002 Bytes, ...) -- CPU is running -- CPU_ReadMem(2 bytes @ 0x20000112) - Data: 00 00  returns 0x00 (0004ms, 6230ms total)
T3450 022:030 JLINK_ReadMem (0x200001B0, 0x0004 Bytes, ...) -- CPU is running -- CPU_ReadMem(4 bytes @ 0x200001B0) - Data: 00 00 00 00  returns 0x00 (0004ms, 6234ms total)
T3450 022:034 JLINK_ReadMem (0x200001B4, 0x0004 Bytes, ...) -- CPU is running -- CPU_ReadMem(4 bytes @ 0x200001B4) - Data: 00 00 00 00  returns 0x00 (0004ms, 6238ms total)
T3450 022:038 JLINK_ReadMem (0x20000105, 0x0001 Bytes, ...) -- CPU is running -- CPU_ReadMem(1 bytes @ 0x20000105) - Data: 02  returns 0x00 (0004ms, 6242ms total)
T3450 022:043 JLINK_ReadMem (0x20000106, 0x0001 Bytes, ...) -- CPU is running -- CPU_ReadMem(1 bytes @ 0x20000106) - Data: 02  returns 0x00 (0003ms, 6245ms total)
T3450 022:047 JLINK_ReadMem (0x20000107, 0x0001 Bytes, ...) -- CPU is running -- CPU_ReadMem(1 bytes @ 0x20000107) - Data: 02  returns 0x00 (0003ms, 6248ms total)
T3450 022:052 JLINK_ReadMem (0x2000DF38, 0x0004 Bytes, ...) -- CPU is running -- CPU_ReadMem(4 bytes @ 0x2000DF38) - Data: C0 BF 56 1A  returns 0x00 (0004ms, 6252ms total)
T3450 022:057 JLINK_ReadMem (0x2000DF3C, 0x0002 Bytes, ...) -- CPU is running -- CPU_ReadMem(2 bytes @ 0x2000DF3C) - Data: 10 0E  returns 0x00 (0004ms, 6256ms total)
T3450 022:061 JLINK_ReadMem (0x2000DF3E, 0x0001 Bytes, ...) -- CPU is running -- CPU_ReadMem(1 bytes @ 0x2000DF3E) - Data: 0A  returns 0x00 (0004ms, 6260ms total)
T3450 022:065 JLINK_ReadMem (0x40020C00, 0x0024 Bytes, ...) -- CPU is running -- CPU_ReadMem(36 bytes @ 0x40020C00) - Data: 4A 0A AA AA 00 00 00 00 8F 0F FF FF 00 00 00 00 ...  returns 0x00 (0006ms, 6266ms total)
T3450 022:071 JLINK_ReadMem (0x40020C24, 0x0004 Bytes, ...) -- CPU is running -- CPU_ReadMem(4 bytes @ 0x40020C24) - Data: CC CC CC CC  returns 0x00 (0004ms, 6270ms total)
T3450 022:075 JLINK_ReadMem (0x40020C00, 0x0004 Bytes, ...) -- CPU is running -- CPU_ReadMem(4 bytes @ 0x40020C00) - Data: 4A 0A AA AA  returns 0x00 (0004ms, 6274ms total)
T3450 022:079 JLINK_ReadMem (0x40020C00, 0x0004 Bytes, ...) -- CPU is running -- CPU_ReadMem(4 bytes @ 0x40020C00) - Data: 4A 0A AA AA  returns 0x00 (0004ms, 6278ms total)
T3450 022:084 JLINK_ReadMem (0x40020C00, 0x0004 Bytes, ...) -- CPU is running -- CPU_ReadMem(4 bytes @ 0x40020C00) - Data: 4A 0A AA AA  returns 0x00 (0003ms, 6281ms total)
T3450 022:087 JLINK_ReadMem (0x40020C00, 0x0004 Bytes, ...) -- CPU is running -- CPU_ReadMem(4 bytes @ 0x40020C00) - Data: 4A 0A AA AA  returns 0x00 (0004ms, 6285ms total)
T3450 022:091 JLINK_ReadMem (0x40020C00, 0x0004 Bytes, ...) -- CPU is running -- CPU_ReadMem(4 bytes @ 0x40020C00) - Data: 4A 0A AA AA  returns 0x00 (0004ms, 6289ms total)
T3450 022:095 JLINK_ReadMem (0x40020C00, 0x0004 Bytes, ...) -- CPU is running -- CPU_ReadMem(4 bytes @ 0x40020C00) - Data: 4A 0A AA AA  returns 0x00 (0006ms, 6295ms total)
T3450 022:101 JLINK_ReadMem (0x40020C00, 0x0004 Bytes, ...) -- CPU is running -- CPU_ReadMem(4 bytes @ 0x40020C00) - Data: 4A 0A AA AA  returns 0x00 (0004ms, 6299ms total)
T3450 022:105 JLINK_ReadMem (0x40020C00, 0x0004 Bytes, ...) -- CPU is running -- CPU_ReadMem(4 bytes @ 0x40020C00) - Data: 4A 0A AA AA  returns 0x00 (0004ms, 6303ms total)
T3450 022:109 JLINK_ReadMem (0x40020C00, 0x0004 Bytes, ...) -- CPU is running -- CPU_ReadMem(4 bytes @ 0x40020C00) - Data: 4A 0A AA AA  returns 0x00 (0004ms, 6307ms total)
T3450 022:113 JLINK_ReadMem (0x40020C00, 0x0004 Bytes, ...) -- CPU is running -- CPU_ReadMem(4 bytes @ 0x40020C00) - Data: 4A 0A AA AA  returns 0x00 (0003ms, 6310ms total)
T3450 022:117 JLINK_ReadMem (0x40020C00, 0x0004 Bytes, ...) -- CPU is running -- CPU_ReadMem(4 bytes @ 0x40020C00) - Data: 4A 0A AA AA  returns 0x00 (0003ms, 6313ms total)
T3450 022:120 JLINK_ReadMem (0x40020C00, 0x0004 Bytes, ...) -- CPU is running -- CPU_ReadMem(4 bytes @ 0x40020C00) - Data: 4A 0A AA AA  returns 0x00 (0004ms, 6317ms total)
T3450 022:124 JLINK_ReadMem (0x40020C00, 0x0004 Bytes, ...) -- CPU is running -- CPU_ReadMem(4 bytes @ 0x40020C00) - Data: 4A 0A AA AA  returns 0x00 (0004ms, 6321ms total)
T3450 022:128 JLINK_ReadMem (0x40020C00, 0x0004 Bytes, ...) -- CPU is running -- CPU_ReadMem(4 bytes @ 0x40020C00) - Data: 4A 0A AA AA  returns 0x00 (0005ms, 6326ms total)
T3450 022:133 JLINK_ReadMem (0x40020C00, 0x0004 Bytes, ...) -- CPU is running -- CPU_ReadMem(4 bytes @ 0x40020C00) - Data: 4A 0A AA AA  returns 0x00 (0004ms, 6330ms total)
T3450 022:137 JLINK_ReadMem (0x40020C00, 0x0004 Bytes, ...) -- CPU is running -- CPU_ReadMem(4 bytes @ 0x40020C00) - Data: 4A 0A AA AA  returns 0x00 (0004ms, 6334ms total)
T3450 022:141 JLINK_ReadMem (0x40020C00, 0x0004 Bytes, ...) -- CPU is running -- CPU_ReadMem(4 bytes @ 0x40020C00) - Data: 4A 0A AA AA  returns 0x00 (0004ms, 6338ms total)
T3450 022:153 JLINK_ReadMem (0x40020C08, 0x0004 Bytes, ...) -- CPU is running -- CPU_ReadMem(4 bytes @ 0x40020C08) - Data: 8F 0F FF FF  returns 0x00 (0004ms, 6342ms total)
T3450 022:157 JLINK_ReadMem (0x40020C08, 0x0004 Bytes, ...) -- CPU is running -- CPU_ReadMem(4 bytes @ 0x40020C08) - Data: 8F 0F FF FF  returns 0x00 (0004ms, 6346ms total)
T3450 022:161 JLINK_ReadMem (0x40020C08, 0x0004 Bytes, ...) -- CPU is running -- CPU_ReadMem(4 bytes @ 0x40020C08) - Data: 8F 0F FF FF  returns 0x00 (0005ms, 6351ms total)
T3450 022:166 JLINK_ReadMem (0x40020C08, 0x0004 Bytes, ...) -- CPU is running -- CPU_ReadMem(4 bytes @ 0x40020C08) - Data: 8F 0F FF FF  returns 0x00 (0003ms, 6354ms total)
T3450 022:169 JLINK_ReadMem (0x40020C08, 0x0004 Bytes, ...) -- CPU is running -- CPU_ReadMem(4 bytes @ 0x40020C08) - Data: 8F 0F FF FF  returns 0x00 (0004ms, 6358ms total)
T3450 022:173 JLINK_ReadMem (0x40020C08, 0x0004 Bytes, ...) -- CPU is running -- CPU_ReadMem(4 bytes @ 0x40020C08) - Data: 8F 0F FF FF  returns 0x00 (0004ms, 6362ms total)
T3450 022:177 JLINK_ReadMem (0x40020C08, 0x0004 Bytes, ...) -- CPU is running -- CPU_ReadMem(4 bytes @ 0x40020C08) - Data: 8F 0F FF FF  returns 0x00 (0004ms, 6366ms total)
T3450 022:181 JLINK_ReadMem (0x40020C08, 0x0004 Bytes, ...) -- CPU is running -- CPU_ReadMem(4 bytes @ 0x40020C08) - Data: 8F 0F FF FF  returns 0x00 (0004ms, 6370ms total)
T3450 022:185 JLINK_ReadMem (0x40020C08, 0x0004 Bytes, ...) -- CPU is running -- CPU_ReadMem(4 bytes @ 0x40020C08) - Data: 8F 0F FF FF  returns 0x00 (0004ms, 6374ms total)
T3450 022:189 JLINK_ReadMem (0x40020C08, 0x0004 Bytes, ...) -- CPU is running -- CPU_ReadMem(4 bytes @ 0x40020C08) - Data: 8F 0F FF FF  returns 0x00 (0004ms, 6378ms total)
T3450 022:193 JLINK_ReadMem (0x40020C08, 0x0004 Bytes, ...) -- CPU is running -- CPU_ReadMem(4 bytes @ 0x40020C08) - Data: 8F 0F FF FF  returns 0x00 (0003ms, 6381ms total)
T3450 022:197 JLINK_ReadMem (0x40020C08, 0x0004 Bytes, ...) -- CPU is running -- CPU_ReadMem(4 bytes @ 0x40020C08) - Data: 8F 0F FF FF  returns 0x00 (0003ms, 6384ms total)
T3450 022:200 JLINK_ReadMem (0x40020C08, 0x0004 Bytes, ...) -- CPU is running -- CPU_ReadMem(4 bytes @ 0x40020C08) - Data: 8F 0F FF FF  returns 0x00 (0004ms, 6388ms total)
T3450 022:204 JLINK_ReadMem (0x40020C08, 0x0004 Bytes, ...) -- CPU is running -- CPU_ReadMem(4 bytes @ 0x40020C08) - Data: 8F 0F FF FF  returns 0x00 (0004ms, 6392ms total)
T3450 022:208 JLINK_ReadMem (0x40020C08, 0x0004 Bytes, ...) -- CPU is running -- CPU_ReadMem(4 bytes @ 0x40020C08) - Data: 8F 0F FF FF  returns 0x00 (0004ms, 6396ms total)
T3450 022:212 JLINK_ReadMem (0x40020C08, 0x0004 Bytes, ...) -- CPU is running -- CPU_ReadMem(4 bytes @ 0x40020C08) - Data: 8F 0F FF FF  returns 0x00 (0004ms, 6400ms total)
T3450 022:216 JLINK_ReadMem (0x40020C08, 0x0004 Bytes, ...) -- CPU is running -- CPU_ReadMem(4 bytes @ 0x40020C08) - Data: 8F 0F FF FF  returns 0x00 (0004ms, 6404ms total)
T3450 022:226 JLINK_ReadMem (0x40020C10, 0x0004 Bytes, ...) -- CPU is running -- CPU_ReadMem(4 bytes @ 0x40020C10) - Data: F4 81 00 00  returns 0x00 (0004ms, 6408ms total)
T3450 022:230 JLINK_ReadMem (0x40020C10, 0x0004 Bytes, ...) -- CPU is running -- CPU_ReadMem(4 bytes @ 0x40020C10) - Data: F4 81 00 00  returns 0x00 (0004ms, 6412ms total)
T3450 022:234 JLINK_ReadMem (0x40020C10, 0x0004 Bytes, ...) -- CPU is running -- CPU_ReadMem(4 bytes @ 0x40020C10) - Data: F4 81 00 00  returns 0x00 (0003ms, 6415ms total)
T3450 022:237 JLINK_ReadMem (0x40020C10, 0x0004 Bytes, ...) -- CPU is running -- CPU_ReadMem(4 bytes @ 0x40020C10) - Data: F4 81 00 00  returns 0x00 (0004ms, 6419ms total)
T3450 022:241 JLINK_ReadMem (0x40020C10, 0x0004 Bytes, ...) -- CPU is running -- CPU_ReadMem(4 bytes @ 0x40020C10) - Data: F4 81 00 00  returns 0x00 (0004ms, 6423ms total)
T3450 022:245 JLINK_ReadMem (0x40020C10, 0x0004 Bytes, ...) -- CPU is running -- CPU_ReadMem(4 bytes @ 0x40020C10) - Data: F4 81 00 00  returns 0x00 (0004ms, 6427ms total)
T3450 022:249 JLINK_ReadMem (0x40020C10, 0x0004 Bytes, ...) -- CPU is running -- CPU_ReadMem(4 bytes @ 0x40020C10) - Data: F4 81 00 00  returns 0x00 (0004ms, 6431ms total)
T3450 022:253 JLINK_ReadMem (0x40020C10, 0x0004 Bytes, ...) -- CPU is running -- CPU_ReadMem(4 bytes @ 0x40020C10) - Data: F4 81 00 00  returns 0x00 (0005ms, 6436ms total)
T3450 022:258 JLINK_ReadMem (0x40020C10, 0x0004 Bytes, ...) -- CPU is running -- CPU_ReadMem(4 bytes @ 0x40020C10) - Data: F4 81 00 00  returns 0x00 (0004ms, 6440ms total)
T3450 022:262 JLINK_ReadMem (0x40020C10, 0x0004 Bytes, ...) -- CPU is running -- CPU_ReadMem(4 bytes @ 0x40020C10) - Data: F4 81 00 00  returns 0x00 (0003ms, 6443ms total)
T3450 022:265 JLINK_ReadMem (0x40020C10, 0x0004 Bytes, ...) -- CPU is running -- CPU_ReadMem(4 bytes @ 0x40020C10) - Data: F4 81 00 00  returns 0x00 (0004ms, 6447ms total)
T3450 022:269 JLINK_ReadMem (0x40020C10, 0x0004 Bytes, ...) -- CPU is running -- CPU_ReadMem(4 bytes @ 0x40020C10) - Data: F4 81 00 00  returns 0x00 (0004ms, 6451ms total)
T3450 022:273 JLINK_ReadMem (0x40020C10, 0x0004 Bytes, ...) -- CPU is running -- CPU_ReadMem(4 bytes @ 0x40020C10) - Data: F5 81 00 00  returns 0x00 (0004ms, 6455ms total)
T3450 022:277 JLINK_ReadMem (0x40020C10, 0x0004 Bytes, ...) -- CPU is running -- CPU_ReadMem(4 bytes @ 0x40020C10) - Data: F5 81 00 00  returns 0x00 (0004ms, 6459ms total)
T3450 022:281 JLINK_ReadMem (0x40020C10, 0x0004 Bytes, ...) -- CPU is running -- CPU_ReadMem(4 bytes @ 0x40020C10) - Data: F5 81 00 00  returns 0x00 (0004ms, 6463ms total)
T3450 022:285 JLINK_ReadMem (0x40020C10, 0x0004 Bytes, ...) -- CPU is running -- CPU_ReadMem(4 bytes @ 0x40020C10) - Data: F5 81 00 00  returns 0x00 (0004ms, 6467ms total)
T3450 022:289 JLINK_ReadMem (0x40020C10, 0x0004 Bytes, ...) -- CPU is running -- CPU_ReadMem(4 bytes @ 0x40020C10) - Data: F5 81 00 00  returns 0x00 (0004ms, 6471ms total)
T3450 022:297 JLINK_ReadMem (0x40020C20, 0x0004 Bytes, ...) -- CPU is running -- CPU_ReadMem(4 bytes @ 0x40020C20) - Data: CC 00 CC 00  returns 0x00 (0004ms, 6475ms total)
T3450 022:301 JLINK_ReadMem (0x40020C20, 0x0004 Bytes, ...) -- CPU is running -- CPU_ReadMem(4 bytes @ 0x40020C20) - Data: CC 00 CC 00  returns 0x00 (0004ms, 6479ms total)
T3450 022:305 JLINK_ReadMem (0x40020C20, 0x0004 Bytes, ...) -- CPU is running -- CPU_ReadMem(4 bytes @ 0x40020C20) - Data: CC 00 CC 00  returns 0x00 (0004ms, 6483ms total)
T3450 022:309 JLINK_ReadMem (0x40020C20, 0x0004 Bytes, ...) -- CPU is running -- CPU_ReadMem(4 bytes @ 0x40020C20) - Data: CC 00 CC 00  returns 0x00 (0004ms, 6487ms total)
T3450 022:313 JLINK_ReadMem (0x40020C20, 0x0004 Bytes, ...) -- CPU is running -- CPU_ReadMem(4 bytes @ 0x40020C20) - Data: CC 00 CC 00  returns 0x00 (0003ms, 6490ms total)
T3450 022:317 JLINK_ReadMem (0x40020C20, 0x0004 Bytes, ...) -- CPU is running -- CPU_ReadMem(4 bytes @ 0x40020C20) - Data: CC 00 CC 00  returns 0x00 (0003ms, 6493ms total)
T3450 022:320 JLINK_ReadMem (0x40020C20, 0x0004 Bytes, ...) -- CPU is running -- CPU_ReadMem(4 bytes @ 0x40020C20) - Data: CC 00 CC 00  returns 0x00 (0004ms, 6497ms total)
T3450 022:324 JLINK_ReadMem (0x40020C20, 0x0004 Bytes, ...) -- CPU is running -- CPU_ReadMem(4 bytes @ 0x40020C20) - Data: CC 00 CC 00  returns 0x00 (0004ms, 6501ms total)
T3450 022:328 JLINK_ReadMem (0x40020C20, 0x0004 Bytes, ...) -- CPU is running -- CPU_ReadMem(4 bytes @ 0x40020C20) - Data: CC 00 CC 00  returns 0x00 (0004ms, 6505ms total)
T3450 022:338 JLINK_ReadMem (0x40020C24, 0x0004 Bytes, ...) -- CPU is running -- CPU_ReadMem(4 bytes @ 0x40020C24) - Data: CC CC CC CC  returns 0x00 (0003ms, 6508ms total)
T3450 022:341 JLINK_ReadMem (0x40020C24, 0x0004 Bytes, ...) -- CPU is running -- CPU_ReadMem(4 bytes @ 0x40020C24) - Data: CC CC CC CC  returns 0x00 (0004ms, 6512ms total)
T3450 022:345 JLINK_ReadMem (0x40020C24, 0x0004 Bytes, ...) -- CPU is running -- CPU_ReadMem(4 bytes @ 0x40020C24) - Data: CC CC CC CC  returns 0x00 (0004ms, 6516ms total)
T3450 022:350 JLINK_ReadMem (0x40020C24, 0x0004 Bytes, ...) -- CPU is running -- CPU_ReadMem(4 bytes @ 0x40020C24) - Data: CC CC CC CC  returns 0x00 (0003ms, 6519ms total)
T3450 022:354 JLINK_ReadMem (0x40020C24, 0x0004 Bytes, ...) -- CPU is running -- CPU_ReadMem(4 bytes @ 0x40020C24) - Data: CC CC CC CC  returns 0x00 (0003ms, 6522ms total)
T3450 022:357 JLINK_ReadMem (0x40020C24, 0x0004 Bytes, ...) -- CPU is running -- CPU_ReadMem(4 bytes @ 0x40020C24) - Data: CC CC CC CC  returns 0x00 (0004ms, 6526ms total)
T3450 022:361 JLINK_ReadMem (0x40020C24, 0x0004 Bytes, ...) -- CPU is running -- CPU_ReadMem(4 bytes @ 0x40020C24) - Data: CC CC CC CC  returns 0x00 (0004ms, 6530ms total)
T3450 022:365 JLINK_ReadMem (0x40020C24, 0x0004 Bytes, ...) -- CPU is running -- CPU_ReadMem(4 bytes @ 0x40020C24) - Data: CC CC CC CC  returns 0x00 (0004ms, 6534ms total)
T3450 022:369 JLINK_ReadMem (0x40020C24, 0x0004 Bytes, ...) -- CPU is running -- CPU_ReadMem(4 bytes @ 0x40020C24) - Data: CC CC CC CC  returns 0x00 (0004ms, 6538ms total)
T4D98 022:378 JLINK_IsHalted()  returns FALSE (0003ms, 6541ms total)
T4D98 022:481 JLINK_ReadMemU32(0xE0001004, 0x0001 Items, ...) -- CPU is running -- CPU_ReadMem(4 bytes @ 0xE0001004) - Data: FD DE 32 04  returns 0x01 (0004ms, 6542ms total)
T3450 022:486 JLINK_ReadMem (0x2000011C, 0x0004 Bytes, ...) -- CPU is running -- CPU_ReadMem(4 bytes @ 0x2000011C) - Data: 00 00 00 00  returns 0x00 (0003ms, 6545ms total)
